
Circuit: ** ngspice simulation bench

cl = 6.000000e-12
Doing analysis at TEMP = 27.000000 and TNOM = 27.000000

Note: Starting dynamic gmin stepping
Trying gmin =   1.0000E-03 Note: One successful gmin step
Trying gmin =   1.0000E-04 Note: One successful gmin step
Trying gmin =   1.0000E-05 Note: One successful gmin step
Trying gmin =   1.0000E-06 Note: One successful gmin step
Trying gmin =   1.0000E-07 Note: One successful gmin step
Trying gmin =   1.0000E-08 Note: One successful gmin step
Trying gmin =   1.0000E-09 Note: One successful gmin step
Trying gmin =   1.0000E-10 Note: One successful gmin step
Trying gmin =   1.0000E-11 Note: One successful gmin step
Trying gmin =   1.0000E-12 Note: One successful gmin step
Trying gmin =   1.0000E-12 Note: One successful gmin step
Note: Dynamic gmin stepping completed


No. of Data Rows : 190
gdc                 =  1.736347e+01
gbw                 =  1.521813e+07
pm_negative         =  -9.768726e+01
gps                 =  -5.910113e+00
pm = 8.231274e+01
psrr = 2.327358e+01
Doing analysis at TEMP = 27.000000 and TNOM = 27.000000

Note: Starting dynamic gmin stepping
Trying gmin =   1.0000E-03 Note: One successful gmin step
Trying gmin =   1.0000E-04 Note: One successful gmin step
Trying gmin =   1.0000E-05 Note: One successful gmin step
Trying gmin =   1.0000E-06 Note: One successful gmin step
Trying gmin =   1.0000E-07 Note: One successful gmin step
Trying gmin =   1.0000E-08 Note: One successful gmin step
Trying gmin =   1.0000E-09 Note: One successful gmin step
Trying gmin =   1.0000E-10 Note: One successful gmin step
Trying gmin =   1.0000E-11 Note: One successful gmin step
Trying gmin =   1.0000E-12 Note: One successful gmin step
Trying gmin =   1.0000E-12 Note: One successful gmin step
Note: Dynamic gmin stepping completed


No. of Data Rows : 190


No. of Data Rows : 1
inoise_total = 4.620099e-06
onoise_total = 9.244630e-08
NOISE output 190 3
                          ** ngspice simulation bench
                          Noise Spectral Density Curves - (V^2 or A^2)/Hz  Wed Dec 16 16:00:46  2020
--------------------------------------------------------------------------------
Index   frequency       inoise_spectrum onoise_spectrum 
--------------------------------------------------------------------------------
0	1.000000e+00	8.094891e-11	4.411217e-09	
1	1.115884e+00	7.254242e-11	3.953115e-09	
2	1.245197e+00	6.500894e-11	3.542587e-09	
3	1.389495e+00	5.825781e-11	3.174692e-09	
4	1.550516e+00	5.220778e-11	2.845002e-09	
5	1.730196e+00	4.678604e-11	2.549551e-09	
6	1.930698e+00	4.192735e-11	2.284782e-09	
7	2.154435e+00	3.757323e-11	2.047510e-09	
8	2.404099e+00	3.367129e-11	1.834878e-09	
9	2.682696e+00	3.017456e-11	1.644327e-09	
10	2.993577e+00	2.704096e-11	1.473566e-09	
11	3.340485e+00	2.423278e-11	1.320537e-09	
12	3.727594e+00	2.171624e-11	1.183401e-09	
13	4.159562e+00	1.946103e-11	1.060506e-09	
14	4.641589e+00	1.744003e-11	9.503740e-10	
15	5.179475e+00	1.562890e-11	8.516790e-10	
16	5.779693e+00	1.400587e-11	7.632334e-10	
17	6.449467e+00	1.255138e-11	6.839728e-10	
18	7.196857e+00	1.124794e-11	6.129434e-10	
19	8.030857e+00	1.007986e-11	5.492903e-10	
20	8.961505e+00	9.033088e-12	4.922476e-10	
21	1.000000e+01	8.095021e-12	4.411288e-10	
22	1.115884e+01	7.254372e-12	3.953186e-10	
23	1.245197e+01	6.501024e-12	3.542658e-10	
24	1.389495e+01	5.825911e-12	3.174763e-10	
25	1.550516e+01	5.220908e-12	2.845073e-10	
26	1.730196e+01	4.678734e-12	2.549622e-10	
27	1.930698e+01	4.192865e-12	2.284853e-10	
28	2.154435e+01	3.757453e-12	2.047580e-10	
29	2.404099e+01	3.367259e-12	1.834948e-10	
30	2.682696e+01	3.017585e-12	1.644398e-10	
31	2.993577e+01	2.704226e-12	1.473636e-10	
32	3.340485e+01	2.423408e-12	1.320608e-10	
33	3.727594e+01	2.171754e-12	1.183472e-10	
34	4.159562e+01	1.946233e-12	1.060577e-10	
35	4.641589e+01	1.744133e-12	9.504448e-11	
36	5.179475e+01	1.563020e-12	8.517498e-11	
37	5.779693e+01	1.400716e-12	7.633042e-11	
38	6.449467e+01	1.255268e-12	6.840436e-11	
39	7.196857e+01	1.124924e-12	6.130142e-11	
40	8.030857e+01	1.008116e-12	5.493611e-11	
41	8.961505e+01	9.034387e-13	4.923184e-11	
42	1.000000e+02	8.096320e-13	4.411996e-11	
43	1.115884e+02	7.255672e-13	3.953894e-11	
44	1.245197e+02	6.502324e-13	3.543366e-11	
45	1.389495e+02	5.827211e-13	3.175471e-11	
46	1.550516e+02	5.222208e-13	2.845781e-11	
47	1.730196e+02	4.680034e-13	2.550330e-11	
48	1.930698e+02	4.194165e-13	2.285561e-11	
49	2.154435e+02	3.758753e-13	2.048289e-11	
50	2.404099e+02	3.368558e-13	1.835657e-11	
51	2.682696e+02	3.018885e-13	1.645106e-11	
52	2.993577e+02	2.705525e-13	1.474345e-11	
53	3.340485e+02	2.424708e-13	1.321316e-11	
54	3.727594e+02	2.173053e-13	1.184180e-11	

Index   frequency       inoise_spectrum onoise_spectrum 
--------------------------------------------------------------------------------
55	4.159562e+02	1.947533e-13	1.061285e-11	
56	4.641589e+02	1.745432e-13	9.511530e-12	
57	5.179475e+02	1.564320e-13	8.524579e-12	
58	5.779693e+02	1.402016e-13	7.640123e-12	
59	6.449467e+02	1.256567e-13	6.847517e-12	
60	7.196857e+02	1.126223e-13	6.137223e-12	
61	8.030857e+02	1.009416e-13	5.500692e-12	
62	8.961505e+02	9.047382e-14	4.930265e-12	
63	1.000000e+03	8.109316e-14	4.419077e-12	
64	1.115884e+03	7.268667e-14	3.960975e-12	
65	1.245197e+03	6.515319e-14	3.550446e-12	
66	1.389495e+03	5.840206e-14	3.182551e-12	
67	1.550516e+03	5.235203e-14	2.852862e-12	
68	1.730196e+03	4.693029e-14	2.557410e-12	
69	1.930698e+03	4.207160e-14	2.292641e-12	
70	2.154435e+03	3.771748e-14	2.055368e-12	
71	2.404099e+03	3.381553e-14	1.842736e-12	
72	2.682696e+03	3.031880e-14	1.652186e-12	
73	2.993577e+03	2.718520e-14	1.481424e-12	
74	3.340485e+03	2.437703e-14	1.328395e-12	
75	3.727594e+03	2.186048e-14	1.191259e-12	
76	4.159562e+03	1.960528e-14	1.068363e-12	
77	4.641589e+03	1.758427e-14	9.582308e-13	
78	5.179475e+03	1.577315e-14	8.595353e-13	
79	5.779693e+03	1.415011e-14	7.710892e-13	
80	6.449467e+03	1.269562e-14	6.918281e-13	
81	7.196857e+03	1.139219e-14	6.207981e-13	
82	8.030857e+03	1.022411e-14	5.571443e-13	
83	8.961505e+03	9.177334e-15	5.001009e-13	
84	1.000000e+04	8.239268e-15	4.489812e-13	
85	1.115884e+04	7.398619e-15	4.031700e-13	
86	1.245197e+04	6.645271e-15	3.621161e-13	
87	1.389495e+04	5.970158e-15	3.253254e-13	
88	1.550516e+04	5.365155e-15	2.923551e-13	
89	1.730196e+04	4.822982e-15	2.628085e-13	
90	1.930698e+04	4.337112e-15	2.363299e-13	
91	2.154435e+04	3.901701e-15	2.126007e-13	
92	2.404099e+04	3.511506e-15	1.913354e-13	
93	2.682696e+04	3.161833e-15	1.722779e-13	
94	2.993577e+04	2.848474e-15	1.551990e-13	
95	3.340485e+04	2.567656e-15	1.398931e-13	
96	3.727594e+04	2.316002e-15	1.261760e-13	
97	4.159562e+04	2.090482e-15	1.138826e-13	
98	4.641589e+04	1.888382e-15	1.028649e-13	
99	5.179475e+04	1.707270e-15	9.299038e-14	
100	5.779693e+04	1.544966e-15	8.414011e-14	
101	6.449467e+04	1.399518e-15	7.620755e-14	
102	7.196857e+04	1.269175e-15	6.909721e-14	
103	8.030857e+04	1.152368e-15	6.272347e-14	
104	8.961505e+04	1.047691e-15	5.700956e-14	
105	1.000000e+05	9.538852e-16	5.188664e-14	
106	1.115884e+05	8.698212e-16	4.729296e-14	
107	1.245197e+05	7.944876e-16	4.317311e-14	
108	1.389495e+05	7.269775e-16	3.947738e-14	
109	1.550516e+05	6.664787e-16	3.616111e-14	
110	1.730196e+05	6.122631e-16	3.318416e-14	
111	1.930698e+05	5.636782e-16	3.051044e-14	
112	2.154435e+05	5.201393e-16	2.810744e-14	

Index   frequency       inoise_spectrum onoise_spectrum 
--------------------------------------------------------------------------------
113	2.404099e+05	4.811226e-16	2.594585e-14	
114	2.682696e+05	4.461585e-16	2.399918e-14	
115	2.993577e+05	4.148263e-16	2.224340e-14	
116	3.340485e+05	3.867490e-16	2.065672e-14	
117	3.727594e+05	3.615889e-16	1.921922e-14	
118	4.159562e+05	3.390431e-16	1.791266e-14	
119	4.641589e+05	3.188406e-16	1.672027e-14	
120	5.179475e+05	3.007383e-16	1.562650e-14	
121	5.779693e+05	2.845187e-16	1.461693e-14	
122	6.449467e+05	2.699867e-16	1.367811e-14	
123	7.196857e+05	2.569678e-16	1.279756e-14	
124	8.030857e+05	2.453057e-16	1.196370e-14	
125	8.961505e+05	2.348606e-16	1.116603e-14	
126	1.000000e+06	2.255072e-16	1.039524e-14	
127	1.115884e+06	2.171338e-16	9.643525e-15	
128	1.245197e+06	2.096405e-16	8.904906e-15	
129	1.389495e+06	2.029380e-16	8.175595e-15	
130	1.550516e+06	1.969471e-16	7.454309e-15	
131	1.730196e+06	1.915971e-16	6.742432e-15	
132	1.930698e+06	1.868254e-16	6.043929e-15	
133	2.154435e+06	1.825766e-16	5.364939e-15	
134	2.404099e+06	1.788022e-16	4.713052e-15	
135	2.682696e+06	1.754594e-16	4.096352e-15	
136	2.993577e+06	1.725109e-16	3.522391e-15	
137	3.340485e+06	1.699248e-16	2.997278e-15	
138	3.727594e+06	1.676733e-16	2.525059e-15	
139	4.159562e+06	1.657329e-16	2.107451e-15	
140	4.641589e+06	1.640839e-16	1.743924e-15	
141	5.179475e+06	1.627099e-16	1.432048e-15	
142	5.779693e+06	1.615975e-16	1.167983e-15	
143	6.449467e+06	1.607365e-16	9.469959e-16	
144	7.196857e+06	1.601193e-16	7.639421e-16	
145	8.030857e+06	1.597418e-16	6.136414e-16	
146	8.961505e+06	1.596031e-16	4.911558e-16	
147	1.000000e+07	1.597058e-16	3.919646e-16	
148	1.115884e+07	1.600564e-16	3.120574e-16	
149	1.245197e+07	1.606654e-16	2.479629e-16	
150	1.389495e+07	1.615472e-16	1.967349e-16	
151	1.550516e+07	1.627204e-16	1.559113e-16	
152	1.730196e+07	1.642090e-16	1.234583e-16	
153	1.930698e+07	1.660431e-16	9.771138e-17	
154	2.154435e+07	1.682626e-16	7.731762e-17	
155	2.404099e+07	1.709203e-16	6.118331e-17	
156	2.682696e+07	1.740882e-16	4.842866e-17	
157	2.993577e+07	1.778635e-16	3.834918e-17	
158	3.340485e+07	1.823768e-16	3.038316e-17	
159	3.727594e+07	1.878007e-16	2.408467e-17	
160	4.159562e+07	1.943604e-16	1.910102e-17	
161	4.641589e+07	2.023448e-16	1.515414e-17	
162	5.179475e+07	2.121224e-16	1.202528e-17	
163	5.779693e+07	2.241591e-16	9.542557e-18	
164	6.449467e+07	2.390430e-16	7.570964e-18	
165	7.196857e+07	2.575167e-16	6.004377e-18	
166	8.030857e+07	2.805196e-16	4.759260e-18	
167	8.961505e+07	3.092458e-16	3.769722e-18	
168	1.000000e+08	3.452218e-16	2.983656e-18	
169	1.115884e+08	3.904119e-16	2.359737e-18	
170	1.245197e+08	4.473635e-16	1.865088e-18	

Index   frequency       inoise_spectrum onoise_spectrum 
--------------------------------------------------------------------------------
171	1.389495e+08	5.194086e-16	1.473469e-18	
172	1.550516e+08	6.109442e-16	1.163886e-18	
173	1.730196e+08	7.278288e-16	9.195042e-19	
174	1.930698e+08	8.779481e-16	7.268192e-19	
175	2.154435e+08	1.072028e-15	5.750098e-19	
176	2.404099e+08	1.324798e-15	4.554299e-19	
177	2.682696e+08	1.656605e-15	3.612014e-19	
178	2.993577e+08	2.095416e-15	2.868809e-19	
179	3.340485e+08	2.678534e-15	2.281830e-19	
180	3.727594e+08	3.451211e-15	1.817490e-19	
181	4.159562e+08	4.453687e-15	1.449542e-19	
182	4.641589e+08	5.677009e-15	1.157495e-19	
183	5.179475e+08	6.964998e-15	9.253408e-20	
184	5.779693e+08	7.915935e-15	7.405417e-20	
185	6.449467e+08	8.033229e-15	5.932483e-20	
186	7.196857e+08	7.210021e-15	4.757007e-20	
187	8.030857e+08	5.874227e-15	3.817731e-20	
188	8.961505e+08	4.523780e-15	3.066237e-20	
189	1.000000e+09	3.402540e-15	2.464243e-20	
Doing analysis at TEMP = 27.000000 and TNOM = 27.000000

Note: Starting dynamic gmin stepping
Trying gmin =   1.0000E-03 Note: One successful gmin step
Trying gmin =   1.0000E-04 Note: One successful gmin step
Trying gmin =   1.0000E-05 Note: One successful gmin step
Trying gmin =   1.0000E-06 Note: One successful gmin step
Trying gmin =   1.0000E-07 Note: One successful gmin step
Trying gmin =   1.0000E-08 Note: One successful gmin step
Trying gmin =   1.0000E-09 Note: One successful gmin step
Trying gmin =   1.0000E-10 Note: One successful gmin step
Trying gmin =   1.0000E-11 Note: One successful gmin step
Trying gmin =   1.0000E-12 Note: One successful gmin step
Trying gmin =   1.0000E-12 Note: One successful gmin step
Note: Dynamic gmin stepping completed


No. of Data Rows : 1
idd = 1.116611e-03
outswing = 8.517674e-01
vov_mpm0 = 1.843305e+00
vov_mpm1 = 4.659151e-01
vov_mpm3 = 1.374342e+00
vov_mpm4 = 1.374342e+00
vov_mpm5 = 1.268000e+00
vov_mpm6 = 1.323188e+00
vov_mnm1 = 7.362325e-02
vov_mnm2 = 7.362530e-02
vov_mnm3 = -4.83515e-02
vov_mnm4 = -4.83394e-02
vov_mnm5 = 7.590209e-01
vov_mnm6 = 7.586622e-01
vov_mnm7 = 2.314104e-01
vov_mnm8 = 2.314104e-01
delta_mpm0 = 8.166717e-01
delta_mpm1 = 5.037009e-01
delta_mpm3 = -9.97992e-02
delta_mpm4 = -1.54986e-01
delta_mpm5 = -7.32985e-01
delta_mpm6 = -7.91970e-01
delta_mnm1 = 4.636792e-01
delta_mnm2 = 1.100424e+00
delta_mnm3 = 1.022638e+00
delta_mnm4 = 1.077822e+00
delta_mnm5 = 6.629545e-01
delta_mnm6 = 7.345682e-01
delta_mnm7 = 5.170724e-01
delta_mnm8 = 5.174312e-01
ngspice-26 done
